Chronologic VCS simulator copyright 1991-2016
Contains Synopsys proprietary information.
Compiler version L-2016.06_Full64; Runtime version L-2016.06_Full64;  Oct 11 18:06 2024
INFO   : No memory technology specified. Using generic inferred memory (tb_top.UUT.ram_inst)
INFO   : Loading memory_init.mem (tb_top.UUT.ram_inst.genblk1.ram_inst)
--------- [DRIVER] Reset Started ---------
--------- [DRIVER] Reset Ended ---------
--------- [DRIVER-TRANSFER: 0] ---------
--------- [Monitor - 0] Parsed Data  ------
	 HADDR          = 0x0
	 HWDATA         = 0x0
	 HRDATA         = 0xdeadbeef
	 HWRITE         = 0
	 HSIZE          = 0
	 HBURST         = 0
	 HPROT          = 0
	 HTRANS         = 0
	 HREADYOUT      = 1
	 HREADY         = 1
	 HRESP          = 0
	 HSEL           = 0
	 HRESETn        = 1
	 no_transactions 	= 0
---------------------------------------------

--------- [Driver - 0] Driven Data  ------
	 HADDR 		= 0x7c
	 HWDATA 	= 0x7bb6d188
	 HRDATA 	= 0x0
	 HWRITE		= 1
	 HSIZE 		= 10
	 HBURST 	= 0
	 HPROT 		= 1
	 HTRANS		= 11
	 HREADYOUT	= 0
	 HREADY 	= 1
	 HRESP 		= 0
	 HSEL 		= 0
	 HRESETn 	= 0
	 no_transactions 	= 0
---------------------------------------------

--------- [DRIVER-TRANSFER: 1] ---------
[SCB] :: Transfer Can be Initiated
--------- [Monitor - 1] Parsed Data  ------
	 HADDR          = 0x7c
	 HWDATA         = 0x7bb6d188
	 HRDATA         = 0x0
	 HWRITE         = 1
	 HSIZE          = 10
	 HBURST         = 0
	 HPROT          = 1
	 HTRANS         = 11
	 HREADYOUT      = 1
	 HREADY         = 1
	 HRESP          = 0
	 HSEL           = 0
	 HRESETn        = 1
	 no_transactions 	= 1
---------------------------------------------

--------- [Driver - 1] Driven Data  ------
	 HADDR 		= 0x44
	 HWDATA 	= 0xe1e26284
	 HRDATA 	= 0xdeadbeef
	 HWRITE		= 0
	 HSIZE 		= 10
	 HBURST 	= 0
	 HPROT 		= 1
	 HTRANS		= 11
	 HREADYOUT	= 0
	 HREADY 	= 1
	 HRESP 		= 0
	 HSEL 		= 0
	 HRESETn 	= 0
	 no_transactions 	= 1
---------------------------------------------

--------- [DRIVER-TRANSFER: 2] ---------
[SCB] :: Transfer Can be Initiated
[SCB] :: Protection is set to DATA ACCESS Only
Error: "./include-files/scoreboard.sv", 101: $unit: at time 55
Slave has not been Selected
--------- [Monitor - 2] Parsed Data  ------
	 HADDR          = 0x44
	 HWDATA         = 0x0
	 HRDATA         = 0xdeadbeef
	 HWRITE         = 0
	 HSIZE          = 10
	 HBURST         = 0
	 HPROT          = 1
	 HTRANS         = 11
	 HREADYOUT      = 1
	 HREADY         = 1
	 HRESP          = 0
	 HSEL           = 0
	 HRESETn        = 1
	 no_transactions 	= 2
---------------------------------------------

--------- [Driver - 2] Driven Data  ------
	 HADDR 		= 0x68
	 HWDATA 	= 0xd90f39b0
	 HRDATA 	= 0x0
	 HWRITE		= 1
	 HSIZE 		= 10
	 HBURST 	= 0
	 HPROT 		= 1
	 HTRANS		= 1
	 HREADYOUT	= 0
	 HREADY 	= 1
	 HRESP 		= 0
	 HSEL 		= 0
	 HRESETn 	= 0
	 no_transactions 	= 2
---------------------------------------------

--------- [DRIVER-TRANSFER: 3] ---------
[SCB] :: Transfer Can be Initiated
[SCB] :: Protection is set to DATA ACCESS Only
Error: "./include-files/scoreboard.sv", 101: $unit: at time 75
Slave has not been Selected
--------- [Monitor - 3] Parsed Data  ------
	 HADDR          = 0x68
	 HWDATA         = 0xd90f39b0
	 HRDATA         = 0x0
	 HWRITE         = 1
	 HSIZE          = 10
	 HBURST         = 0
	 HPROT          = 1
	 HTRANS         = 1
	 HREADYOUT      = 1
	 HREADY         = 1
	 HRESP          = 0
	 HSEL           = 0
	 HRESETn        = 1
	 no_transactions 	= 3
---------------------------------------------

--------- [Driver - 3] Driven Data  ------
	 HADDR 		= 0xd0
	 HWDATA 	= 0x98753434
	 HRDATA 	= 0xdeadbeef
	 HWRITE		= 0
	 HSIZE 		= 10
	 HBURST 	= 0
	 HPROT 		= 1
	 HTRANS		= 1
	 HREADYOUT	= 0
	 HREADY 	= 1
	 HRESP 		= 0
	 HSEL 		= 0
	 HRESETn 	= 0
	 no_transactions 	= 3
---------------------------------------------

--------- [DRIVER-TRANSFER: 4] ---------
[SCB] :: Transfer Can be Initiated
[SCB] :: Protection is set to DATA ACCESS Only
Error: "./include-files/scoreboard.sv", 101: $unit: at time 95
Slave has not been Selected
--------- [Monitor - 4] Parsed Data  ------
	 HADDR          = 0xd0
	 HWDATA         = 0x0
	 HRDATA         = 0xdeadbeef
	 HWRITE         = 0
	 HSIZE          = 10
	 HBURST         = 0
	 HPROT          = 1
	 HTRANS         = 1
	 HREADYOUT      = 1
	 HREADY         = 1
	 HRESP          = 0
	 HSEL           = 0
	 HRESETn        = 1
	 no_transactions 	= 4
---------------------------------------------

--------- [Driver - 4] Driven Data  ------
	 HADDR 		= 0x58
	 HWDATA 	= 0x9642a094
	 HRDATA 	= 0x0
	 HWRITE		= 1
	 HSIZE 		= 10
	 HBURST 	= 0
	 HPROT 		= 1
	 HTRANS		= 0
	 HREADYOUT	= 0
	 HREADY 	= 1
	 HRESP 		= 0
	 HSEL 		= 0
	 HRESETn 	= 0
	 no_transactions 	= 4
---------------------------------------------

--------- [DRIVER-TRANSFER: 5] ---------
[SCB] :: Transfer Can be Initiated
[SCB] :: Protection is set to DATA ACCESS Only
Error: "./include-files/scoreboard.sv", 101: $unit: at time 115
Slave has not been Selected
--------- [Monitor - 5] Parsed Data  ------
	 HADDR          = 0x58
	 HWDATA         = 0x9642a094
	 HRDATA         = 0x0
	 HWRITE         = 1
	 HSIZE          = 10
	 HBURST         = 0
	 HPROT          = 1
	 HTRANS         = 0
	 HREADYOUT      = 1
	 HREADY         = 1
	 HRESP          = 0
	 HSEL           = 0
	 HRESETn        = 1
	 no_transactions 	= 5
---------------------------------------------

--------- [Driver - 5] Driven Data  ------
	 HADDR 		= 0xd4
	 HWDATA 	= 0x637635f3
	 HRDATA 	= 0xdeadbeef
	 HWRITE		= 0
	 HSIZE 		= 10
	 HBURST 	= 0
	 HPROT 		= 1
	 HTRANS		= 10
	 HREADYOUT	= 0
	 HREADY 	= 1
	 HRESP 		= 0
	 HSEL 		= 0
	 HRESETn 	= 0
	 no_transactions 	= 5
---------------------------------------------

--------- [DRIVER-TRANSFER: 6] ---------
[SCB] :: Transfer Can be Initiated
[SCB] :: Protection is set to DATA ACCESS Only
Error: "./include-files/scoreboard.sv", 101: $unit: at time 135
Slave has not been Selected
--------- [Monitor - 6] Parsed Data  ------
	 HADDR          = 0xd4
	 HWDATA         = 0x0
	 HRDATA         = 0xdeadbeef
	 HWRITE         = 0
	 HSIZE          = 10
	 HBURST         = 0
	 HPROT          = 1
	 HTRANS         = 10
	 HREADYOUT      = 1
	 HREADY         = 1
	 HRESP          = 0
	 HSEL           = 0
	 HRESETn        = 1
	 no_transactions 	= 6
---------------------------------------------

--------- [Driver - 6] Driven Data  ------
	 HADDR 		= 0x24
	 HWDATA 	= 0x85ac530c
	 HRDATA 	= 0x0
	 HWRITE		= 1
	 HSIZE 		= 10
	 HBURST 	= 0
	 HPROT 		= 1
	 HTRANS		= 1
	 HREADYOUT	= 0
	 HREADY 	= 1
	 HRESP 		= 0
	 HSEL 		= 0
	 HRESETn 	= 0
	 no_transactions 	= 6
---------------------------------------------

--------- [DRIVER-TRANSFER: 7] ---------
[SCB] :: Transfer Can be Initiated
[SCB] :: Protection is set to DATA ACCESS Only
Error: "./include-files/scoreboard.sv", 101: $unit: at time 155
Slave has not been Selected
--------- [Monitor - 7] Parsed Data  ------
	 HADDR          = 0x24
	 HWDATA         = 0x85ac530c
	 HRDATA         = 0x0
	 HWRITE         = 1
	 HSIZE          = 10
	 HBURST         = 0
	 HPROT          = 1
	 HTRANS         = 1
	 HREADYOUT      = 1
	 HREADY         = 1
	 HRESP          = 0
	 HSEL           = 0
	 HRESETn        = 1
	 no_transactions 	= 7
---------------------------------------------

--------- [Driver - 7] Driven Data  ------
	 HADDR 		= 0x98
	 HWDATA 	= 0xabfd4645
	 HRDATA 	= 0xdeadbeef
	 HWRITE		= 0
	 HSIZE 		= 10
	 HBURST 	= 0
	 HPROT 		= 1
	 HTRANS		= 0
	 HREADYOUT	= 0
	 HREADY 	= 1
	 HRESP 		= 0
	 HSEL 		= 0
	 HRESETn 	= 0
	 no_transactions 	= 7
---------------------------------------------

--------- [DRIVER-TRANSFER: 8] ---------
[SCB] :: Transfer Can be Initiated
[SCB] :: Protection is set to DATA ACCESS Only
Error: "./include-files/scoreboard.sv", 101: $unit: at time 175
Slave has not been Selected
--------- [Monitor - 8] Parsed Data  ------
	 HADDR          = 0x98
	 HWDATA         = 0x0
	 HRDATA         = 0xdeadbeef
	 HWRITE         = 0
	 HSIZE          = 10
	 HBURST         = 0
	 HPROT          = 1
	 HTRANS         = 0
	 HREADYOUT      = 1
	 HREADY         = 1
	 HRESP          = 0
	 HSEL           = 0
	 HRESETn        = 1
	 no_transactions 	= 8
---------------------------------------------

--------- [Driver - 8] Driven Data  ------
	 HADDR 		= 0xd8
	 HWDATA 	= 0x21afad8c
	 HRDATA 	= 0x0
	 HWRITE		= 1
	 HSIZE 		= 10
	 HBURST 	= 0
	 HPROT 		= 1
	 HTRANS		= 1
	 HREADYOUT	= 0
	 HREADY 	= 1
	 HRESP 		= 0
	 HSEL 		= 0
	 HRESETn 	= 0
	 no_transactions 	= 8
---------------------------------------------

--------- [DRIVER-TRANSFER: 9] ---------
[SCB] :: Transfer Can be Initiated
[SCB] :: Protection is set to DATA ACCESS Only
Error: "./include-files/scoreboard.sv", 101: $unit: at time 195
Slave has not been Selected
--------- [Monitor - 9] Parsed Data  ------
	 HADDR          = 0xd8
	 HWDATA         = 0x21afad8c
	 HRDATA         = 0x0
	 HWRITE         = 1
	 HSIZE          = 10
	 HBURST         = 0
	 HPROT          = 1
	 HTRANS         = 1
	 HREADYOUT      = 1
	 HREADY         = 1
	 HRESP          = 0
	 HSEL           = 0
	 HRESETn        = 1
	 no_transactions 	= 9
---------------------------------------------

--------- [Driver - 9] Driven Data  ------
	 HADDR 		= 0x5c
	 HWDATA 	= 0x40e3afe0
	 HRDATA 	= 0xdeadbeef
	 HWRITE		= 0
	 HSIZE 		= 10
	 HBURST 	= 0
	 HPROT 		= 1
	 HTRANS		= 11
	 HREADYOUT	= 0
	 HREADY 	= 1
	 HRESP 		= 0
	 HSEL 		= 0
	 HRESETn 	= 0
	 no_transactions 	= 9
---------------------------------------------

--------- [DRIVER-TRANSFER: 10] ---------
[SCB] :: Transfer Can be Initiated
[SCB] :: Protection is set to DATA ACCESS Only
Error: "./include-files/scoreboard.sv", 101: $unit: at time 215
Slave has not been Selected
--------- [Monitor - 10] Parsed Data  ------
	 HADDR          = 0x5c
	 HWDATA         = 0x0
	 HRDATA         = 0xdeadbeef
	 HWRITE         = 0
	 HSIZE          = 10
	 HBURST         = 0
	 HPROT          = 1
	 HTRANS         = 11
	 HREADYOUT      = 1
	 HREADY         = 1
	 HRESP          = 0
	 HSEL           = 0
	 HRESETn        = 1
	 no_transactions 	= 10
---------------------------------------------

--------- [Driver - 10] Driven Data  ------
	 HADDR 		= 0x70
	 HWDATA 	= 0xf373245
	 HRDATA 	= 0x0
	 HWRITE		= 1
	 HSIZE 		= 10
	 HBURST 	= 0
	 HPROT 		= 1
	 HTRANS		= 10
	 HREADYOUT	= 0
	 HREADY 	= 1
	 HRESP 		= 0
	 HSEL 		= 0
	 HRESETn 	= 0
	 no_transactions 	= 10
---------------------------------------------

--------- [DRIVER-TRANSFER: 11] ---------
[SCB] :: Transfer Can be Initiated
[SCB] :: Protection is set to DATA ACCESS Only
Error: "./include-files/scoreboard.sv", 101: $unit: at time 235
Slave has not been Selected
--------- [Monitor - 11] Parsed Data  ------
	 HADDR          = 0x70
	 HWDATA         = 0xf373245
	 HRDATA         = 0x0
	 HWRITE         = 1
	 HSIZE          = 10
	 HBURST         = 0
	 HPROT          = 1
	 HTRANS         = 10
	 HREADYOUT      = 1
	 HREADY         = 1
	 HRESP          = 0
	 HSEL           = 0
	 HRESETn        = 1
	 no_transactions 	= 11
---------------------------------------------

--------- [Driver - 11] Driven Data  ------
	 HADDR 		= 0xb4
	 HWDATA 	= 0xa7cb51c4
	 HRDATA 	= 0xdeadbeef
	 HWRITE		= 0
	 HSIZE 		= 10
	 HBURST 	= 0
	 HPROT 		= 1
	 HTRANS		= 1
	 HREADYOUT	= 0
	 HREADY 	= 1
	 HRESP 		= 0
	 HSEL 		= 0
	 HRESETn 	= 0
	 no_transactions 	= 11
---------------------------------------------

--------- [DRIVER-TRANSFER: 12] ---------
[SCB] :: Transfer Can be Initiated
[SCB] :: Protection is set to DATA ACCESS Only
Error: "./include-files/scoreboard.sv", 101: $unit: at time 255
Slave has not been Selected
--------- [Monitor - 12] Parsed Data  ------
	 HADDR          = 0xb4
	 HWDATA         = 0x0
	 HRDATA         = 0xdeadbeef
	 HWRITE         = 0
	 HSIZE          = 10
	 HBURST         = 0
	 HPROT          = 1
	 HTRANS         = 1
	 HREADYOUT      = 1
	 HREADY         = 1
	 HRESP          = 0
	 HSEL           = 0
	 HRESETn        = 1
	 no_transactions 	= 12
---------------------------------------------

--------- [Driver - 12] Driven Data  ------
	 HADDR 		= 0x48
	 HWDATA 	= 0x2a41d1c3
	 HRDATA 	= 0x0
	 HWRITE		= 1
	 HSIZE 		= 10
	 HBURST 	= 0
	 HPROT 		= 1
	 HTRANS		= 0
	 HREADYOUT	= 0
	 HREADY 	= 1
	 HRESP 		= 0
	 HSEL 		= 0
	 HRESETn 	= 0
	 no_transactions 	= 12
---------------------------------------------

--------- [DRIVER-TRANSFER: 13] ---------
[SCB] :: Transfer Can be Initiated
[SCB] :: Protection is set to DATA ACCESS Only
Error: "./include-files/scoreboard.sv", 101: $unit: at time 275
Slave has not been Selected
--------- [Monitor - 13] Parsed Data  ------
	 HADDR          = 0x48
	 HWDATA         = 0x2a41d1c3
	 HRDATA         = 0x0
	 HWRITE         = 1
	 HSIZE          = 10
	 HBURST         = 0
	 HPROT          = 1
	 HTRANS         = 0
	 HREADYOUT      = 1
	 HREADY         = 1
	 HRESP          = 0
	 HSEL           = 0
	 HRESETn        = 1
	 no_transactions 	= 13
---------------------------------------------

--------- [Driver - 13] Driven Data  ------
	 HADDR 		= 0x74
	 HWDATA 	= 0x7d4f3f17
	 HRDATA 	= 0xdeadbeef
	 HWRITE		= 0
	 HSIZE 		= 10
	 HBURST 	= 0
	 HPROT 		= 1
	 HTRANS		= 10
	 HREADYOUT	= 0
	 HREADY 	= 1
	 HRESP 		= 0
	 HSEL 		= 0
	 HRESETn 	= 0
	 no_transactions 	= 13
---------------------------------------------

--------- [DRIVER-TRANSFER: 14] ---------
[SCB] :: Transfer Can be Initiated
[SCB] :: Protection is set to DATA ACCESS Only
Error: "./include-files/scoreboard.sv", 101: $unit: at time 295
Slave has not been Selected
--------- [Monitor - 14] Parsed Data  ------
	 HADDR          = 0x74
	 HWDATA         = 0x0
	 HRDATA         = 0xdeadbeef
	 HWRITE         = 0
	 HSIZE          = 10
	 HBURST         = 0
	 HPROT          = 1
	 HTRANS         = 10
	 HREADYOUT      = 1
	 HREADY         = 1
	 HRESP          = 0
	 HSEL           = 0
	 HRESETn        = 1
	 no_transactions 	= 14
---------------------------------------------

--------- [Driver - 14] Driven Data  ------
	 HADDR 		= 0xa4
	 HWDATA 	= 0x656cd541
	 HRDATA 	= 0x0
	 HWRITE		= 1
	 HSIZE 		= 10
	 HBURST 	= 0
	 HPROT 		= 1
	 HTRANS		= 10
	 HREADYOUT	= 0
	 HREADY 	= 1
	 HRESP 		= 0
	 HSEL 		= 0
	 HRESETn 	= 0
	 no_transactions 	= 14
---------------------------------------------

--------- [DRIVER-TRANSFER: 15] ---------
[SCB] :: Transfer Can be Initiated
[SCB] :: Protection is set to DATA ACCESS Only
Error: "./include-files/scoreboard.sv", 101: $unit: at time 315
Slave has not been Selected
--------- [Monitor - 15] Parsed Data  ------
	 HADDR          = 0xa4
	 HWDATA         = 0x656cd541
	 HRDATA         = 0x0
	 HWRITE         = 1
	 HSIZE          = 10
	 HBURST         = 0
	 HPROT          = 1
	 HTRANS         = 10
	 HREADYOUT      = 1
	 HREADY         = 1
	 HRESP          = 0
	 HSEL           = 0
	 HRESETn        = 1
	 no_transactions 	= 15
---------------------------------------------

--------- [Driver - 15] Driven Data  ------
	 HADDR 		= 0x0
	 HWDATA 	= 0xd4d15918
	 HRDATA 	= 0xdeadbeef
	 HWRITE		= 0
	 HSIZE 		= 10
	 HBURST 	= 0
	 HPROT 		= 1
	 HTRANS		= 11
	 HREADYOUT	= 0
	 HREADY 	= 1
	 HRESP 		= 0
	 HSEL 		= 0
	 HRESETn 	= 0
	 no_transactions 	= 15
---------------------------------------------

--------- [DRIVER-TRANSFER: 16] ---------
[SCB] :: Transfer Can be Initiated
[SCB] :: Protection is set to DATA ACCESS Only
Error: "./include-files/scoreboard.sv", 101: $unit: at time 335
Slave has not been Selected
--------- [Monitor - 16] Parsed Data  ------
	 HADDR          = 0x0
	 HWDATA         = 0x0
	 HRDATA         = 0xdeadbeef
	 HWRITE         = 0
	 HSIZE          = 10
	 HBURST         = 0
	 HPROT          = 1
	 HTRANS         = 11
	 HREADYOUT      = 1
	 HREADY         = 1
	 HRESP          = 0
	 HSEL           = 0
	 HRESETn        = 1
	 no_transactions 	= 16
---------------------------------------------

--------- [Driver - 16] Driven Data  ------
	 HADDR 		= 0xa0
	 HWDATA 	= 0x7c2b15d
	 HRDATA 	= 0x0
	 HWRITE		= 1
	 HSIZE 		= 10
	 HBURST 	= 0
	 HPROT 		= 1
	 HTRANS		= 10
	 HREADYOUT	= 0
	 HREADY 	= 1
	 HRESP 		= 0
	 HSEL 		= 0
	 HRESETn 	= 0
	 no_transactions 	= 16
---------------------------------------------

--------- [DRIVER-TRANSFER: 17] ---------
[SCB] :: Transfer Can be Initiated
[SCB] :: Protection is set to DATA ACCESS Only
Error: "./include-files/scoreboard.sv", 101: $unit: at time 355
Slave has not been Selected
--------- [Monitor - 17] Parsed Data  ------
	 HADDR          = 0xa0
	 HWDATA         = 0x7c2b15d
	 HRDATA         = 0x0
	 HWRITE         = 1
	 HSIZE          = 10
	 HBURST         = 0
	 HPROT          = 1
	 HTRANS         = 10
	 HREADYOUT      = 1
	 HREADY         = 1
	 HRESP          = 0
	 HSEL           = 0
	 HRESETn        = 1
	 no_transactions 	= 17
---------------------------------------------

--------- [Driver - 17] Driven Data  ------
	 HADDR 		= 0xb4
	 HWDATA 	= 0x8e386b44
	 HRDATA 	= 0xdeadbeef
	 HWRITE		= 0
	 HSIZE 		= 10
	 HBURST 	= 0
	 HPROT 		= 1
	 HTRANS		= 11
	 HREADYOUT	= 0
	 HREADY 	= 1
	 HRESP 		= 0
	 HSEL 		= 0
	 HRESETn 	= 0
	 no_transactions 	= 17
---------------------------------------------

--------- [DRIVER-TRANSFER: 18] ---------
[SCB] :: Transfer Can be Initiated
[SCB] :: Protection is set to DATA ACCESS Only
Error: "./include-files/scoreboard.sv", 101: $unit: at time 375
Slave has not been Selected
--------- [Monitor - 18] Parsed Data  ------
	 HADDR          = 0xb4
	 HWDATA         = 0x0
	 HRDATA         = 0xdeadbeef
	 HWRITE         = 0
	 HSIZE          = 10
	 HBURST         = 0
	 HPROT          = 1
	 HTRANS         = 11
	 HREADYOUT      = 1
	 HREADY         = 1
	 HRESP          = 0
	 HSEL           = 0
	 HRESETn        = 1
	 no_transactions 	= 18
---------------------------------------------

--------- [Driver - 18] Driven Data  ------
	 HADDR 		= 0xc8
	 HWDATA 	= 0x94aaf301
	 HRDATA 	= 0x0
	 HWRITE		= 1
	 HSIZE 		= 10
	 HBURST 	= 0
	 HPROT 		= 1
	 HTRANS		= 10
	 HREADYOUT	= 0
	 HREADY 	= 1
	 HRESP 		= 0
	 HSEL 		= 0
	 HRESETn 	= 0
	 no_transactions 	= 18
---------------------------------------------

--------- [DRIVER-TRANSFER: 19] ---------
[SCB] :: Transfer Can be Initiated
[SCB] :: Protection is set to DATA ACCESS Only
Error: "./include-files/scoreboard.sv", 101: $unit: at time 395
Slave has not been Selected
--------- [Monitor - 19] Parsed Data  ------
	 HADDR          = 0xc8
	 HWDATA         = 0x94aaf301
	 HRDATA         = 0x0
	 HWRITE         = 1
	 HSIZE          = 10
	 HBURST         = 0
	 HPROT          = 1
	 HTRANS         = 10
	 HREADYOUT      = 1
	 HREADY         = 1
	 HRESP          = 0
	 HSEL           = 0
	 HRESETn        = 1
	 no_transactions 	= 19
---------------------------------------------

--------- [Driver - 19] Driven Data  ------
	 HADDR 		= 0x70
	 HWDATA 	= 0x2eea77ea
	 HRDATA 	= 0xdeadbeef
	 HWRITE		= 0
	 HSIZE 		= 10
	 HBURST 	= 0
	 HPROT 		= 1
	 HTRANS		= 0
	 HREADYOUT	= 0
	 HREADY 	= 1
	 HRESP 		= 0
	 HSEL 		= 0
	 HRESETn 	= 0
	 no_transactions 	= 19
---------------------------------------------

[SCB] :: Transfer Can be Initiated
[SCB] :: Protection is set to DATA ACCESS Only
Error: "./include-files/scoreboard.sv", 101: $unit: at time 415
Slave has not been Selected
$finish called from file "./include-files/environment.sv", line 107.
$finish at simulation time                  415
           V C S   S i m u l a t i o n   R e p o r t 
Time: 415
CPU Time:      0.270 seconds;       Data structure size:   0.0Mb
Fri Oct 11 18:06:46 2024
